
T0E20 000:342 SEGGER J-Link V4.98e Log File (0001ms, 0325ms total)
T0E20 000:342 DLL Compiled: May  5 2015 11:00:52 (0001ms, 0325ms total)
T0E20 000:342 Logging started @ 2018-08-28 17:41 (0001ms, 0325ms total)
T0E20 000:343 JLINK_SetWarnOutHandler(...) (0000ms, 0325ms total)
T0E20 000:343 JLINK_OpenEx(...)
Firmware: J-Link V9 compiled Dec 16 2016 15:34:10
Hardware: V9.40
S/N: 59407729
Feature(s): RDI, GDB, FlashDL, FlashBP, JFlash  returns O.K. (0264ms, 0589ms total)
T0E20 000:607 JLINK_SetErrorOutHandler(...) (0000ms, 0589ms total)
T0E20 000:607 JLINK_ExecCommand("ProjectFile = "E:\project\keil\STM32F1\Stm32F103-Hal-Contiki\Stm32F103-Hal-Contiki\MDK\JLinkSettings.ini"", ...)  returns 0x00 (0024ms, 0613ms total)
T0E20 000:632 JLINK_ExecCommand("Device = STM32F103C8", ...)Device "STM32F103C8" selected.  returns 0x00 (0001ms, 0614ms total)
T0E20 000:633 JLINK_ExecCommand("DisableConnectionTimeout", ...)  returns 0x01 (0000ms, 0614ms total)
T0E20 000:633 JLINK_GetHardwareVersion()  returns 0x16F30 (0000ms, 0614ms total)
T0E20 000:633 JLINK_GetDLLVersion()  returns 49805 (0000ms, 0614ms total)
T0E20 000:633 JLINK_GetFirmwareString(...) (0000ms, 0614ms total)
T0E20 000:635 JLINK_GetDLLVersion()  returns 49805 (0000ms, 0614ms total)
T0E20 000:635 JLINK_GetCompileDateTime() (0000ms, 0614ms total)
T0E20 000:636 JLINK_GetFirmwareString(...) (0000ms, 0614ms total)
T0E20 000:637 JLINK_GetHardwareVersion()  returns 0x16F30 (0000ms, 0614ms total)
T0E20 000:645 JLINK_TIF_Select(JLINKARM_TIF_SWD)  returns 0x00 (0001ms, 0615ms total)
T0E20 000:646 JLINK_SetSpeed(5000) (0000ms, 0615ms total)
T0E20 000:646 JLINK_GetId() >0x108 TIF>Found SWD-DP with ID 0x1BA01477 >0x0D TIF> >0x28 TIF> >0x0D TIF> >0x28 TIF> >0x0D TIF> >0x21 TIF> >0x0D TIF> >0x28 TIF> >0x0D TIF> >0x28 TIF> >0x0D TIF> >0x28 TIF> >0x0D TIF> >0x21 TIF> >0x0D TIF> >0x21 TIF> >0x0D TIF> >0x28 TIF> >0x0D TIF> >0x21 TIF> >0x0D TIF> >0x21 TIF> >0x0D TIF> >0x28 TIF> >0x0D TIF> >0x28 TIF> >0x108 TIF>Found SWD-DP with ID 0x1BA01477 >0x0D TIF> >0x21 TIF> >0x0D TIF> >0x28 TIF> >0x0D TIF> >0x28 TIF> >0x0D TIF> >0x21 TIF> >0x0D TIF> >0x28 TIF>
 >0x0D TIF> >0x21 TIF> >0x0D TIF> >0x21 TIF> >0x0D TIF> >0x21 TIF> >0x0D TIF> >0x21 TIF> >0x0D TIF> >0x28 TIF> >0x0D TIF> >0x28 TIF> >0x0D TIF> >0x21 TIF> >0x0D TIF> >0x28 TIF> >0x0D TIF> >0x28 TIF> >0x0D TIF> >0x28 TIF> >0x0D TIF> >0x21 TIF> >0x0D TIF> >0x21 TIF> >0x0D TIF> >0x28 TIF> >0x0D TIF> >0x21 TIF> >0x0D TIF> >0x21 TIF>Found Cortex-M3 r1p1, Little endian. -- CPU_WriteMem(4 bytes @ 0xE0002000) -- CPU_ReadMem(4 bytes @ 0xE000EDF0) -- CPU_WriteMem(4 bytes @ 0xE000EDF0)
 -- CPU_ReadMem(4 bytes @ 0xE0002000)FPUnit: 6 code (BP) slots and 2 literal slots -- CPU_ReadMem(4 bytes @ 0xE000EDFC) -- CPU_WriteMem(4 bytes @ 0xE000EDFC) -- CPU_ReadMem(4 bytes @ 0xE0001000) -- CPU_WriteMem(4 bytes @ 0xE0001000) -- CPU_ReadMem(4 bytes @ 0xE000ED88) -- CPU_WriteMem(4 bytes @ 0xE000ED88) -- CPU_ReadMem(4 bytes @ 0xE000ED88) -- CPU_WriteMem(4 bytes @ 0xE000ED88)CoreSight components:ROMTbl 0 @ E00FF000 -- CPU_ReadMem(16 bytes @ 0xE00FF000) -- CPU_ReadMem(16 bytes @ 0xE000EFF0)
 -- CPU_ReadMem(16 bytes @ 0xE000EFE0)ROMTbl 0 [0]: FFF0F000, CID: B105E00D, PID: 001BB000 SCS -- CPU_ReadMem(16 bytes @ 0xE0001FF0) -- CPU_ReadMem(16 bytes @ 0xE0001FE0)ROMTbl 0 [1]: FFF02000, CID: B105E00D, PID: 001BB002 DWT -- CPU_ReadMem(16 bytes @ 0xE0002FF0) -- CPU_ReadMem(16 bytes @ 0xE0002FE0)ROMTbl 0 [2]: FFF03000, CID: B105E00D, PID: 000BB003 FPB -- CPU_ReadMem(16 bytes @ 0xE0000FF0) -- CPU_ReadMem(16 bytes @ 0xE0000FE0)ROMTbl 0 [3]: FFF01000, CID: B105E00D, PID: 001BB001 ITM
 -- CPU_ReadMem(16 bytes @ 0xE00FF010) -- CPU_ReadMem(16 bytes @ 0xE0040FF0) -- CPU_ReadMem(16 bytes @ 0xE0040FE0)ROMTbl 0 [4]: FFF41000, CID: B105900D, PID: 001BB923 TPIU-Lite >0x0D TIF> >0x21 TIF>  returns 0x1BA01477 (0054ms, 0669ms total)
T0E20 000:700 JLINK_GetDLLVersion()  returns 49805 (0000ms, 0669ms total)
T0E20 000:700 JLINK_CORE_GetFound()  returns 0x30000FF (0000ms, 0669ms total)
T0E20 000:700 JLINK_GetDebugInfo(0x100) -- Value=0xE00FF003  returns 0x00 (0000ms, 0669ms total)
T0E20 000:702 JLINK_ReadMem (0xE00FF000, 0x0020 Bytes, ...) -- CPU is running -- CPU_ReadMem(32 bytes @ 0xE00FF000) - Data: 03 F0 F0 FF 03 20 F0 FF 03 30 F0 FF 03 10 F0 FF ...  returns 0x00 (0001ms, 0670ms total)
T0E20 000:703 JLINK_ReadMem (0xE000EFF0, 0x0010 Bytes, ...) -- CPU is running -- CPU_ReadMem(16 bytes @ 0xE000EFF0) - Data: 0D 00 00 00 E0 00 00 00 05 00 00 00 B1 00 00 00  returns 0x00 (0000ms, 0670ms total)
T0E20 000:703 JLINK_ReadMem (0xE000EFD0, 0x0020 Bytes, ...) -- CPU is running -- CPU_ReadMem(32 bytes @ 0xE000EFD0) - Data: 04 00 00 00 00 00 00 00 00 00 00 00 00 00 00 00 ...  returns 0x00 (0000ms, 0670ms total)
T0E20 000:703 JLINK_ReadMem (0xE0001FF0, 0x0010 Bytes, ...) -- CPU is running -- CPU_ReadMem(16 bytes @ 0xE0001FF0) - Data: 0D 00 00 00 E0 00 00 00 05 00 00 00 B1 00 00 00  returns 0x00 (0001ms, 0671ms total)
T0E20 000:704 JLINK_ReadMem (0xE0001FD0, 0x0020 Bytes, ...) -- CPU is running -- CPU_ReadMem(32 bytes @ 0xE0001FD0) - Data: 04 00 00 00 00 00 00 00 00 00 00 00 00 00 00 00 ...  returns 0x00 (0001ms, 0672ms total)
T0E20 000:705 JLINK_ReadMem (0xE0002FF0, 0x0010 Bytes, ...) -- CPU is running -- CPU_ReadMem(16 bytes @ 0xE0002FF0) - Data: 0D 00 00 00 E0 00 00 00 05 00 00 00 B1 00 00 00  returns 0x00 (0000ms, 0672ms total)
T0E20 000:705 JLINK_ReadMem (0xE0002FD0, 0x0020 Bytes, ...) -- CPU is running -- CPU_ReadMem(32 bytes @ 0xE0002FD0) - Data: 04 00 00 00 00 00 00 00 00 00 00 00 00 00 00 00 ...  returns 0x00 (0001ms, 0673ms total)
T0E20 000:706 JLINK_ReadMem (0xE0000FF0, 0x0010 Bytes, ...) -- CPU is running -- CPU_ReadMem(16 bytes @ 0xE0000FF0) - Data: 0D 00 00 00 E0 00 00 00 05 00 00 00 B1 00 00 00  returns 0x00 (0000ms, 0673ms total)
T0E20 000:706 JLINK_ReadMem (0xE0000FD0, 0x0020 Bytes, ...) -- CPU is running -- CPU_ReadMem(32 bytes @ 0xE0000FD0) - Data: 04 00 00 00 00 00 00 00 00 00 00 00 00 00 00 00 ...  returns 0x00 (0000ms, 0673ms total)
T0E20 000:706 JLINK_ReadMem (0xE0040FF0, 0x0010 Bytes, ...) -- CPU is running -- CPU_ReadMem(16 bytes @ 0xE0040FF0) - Data: 0D 00 00 00 90 00 00 00 05 00 00 00 B1 00 00 00  returns 0x00 (0001ms, 0674ms total)
T0E20 000:707 JLINK_ReadMem (0xE0040FD0, 0x0020 Bytes, ...) -- CPU is running -- CPU_ReadMem(32 bytes @ 0xE0040FD0) - Data: 04 00 00 00 00 00 00 00 00 00 00 00 00 00 00 00 ...  returns 0x00 (0000ms, 0674ms total)
T0E20 000:707 JLINK_ReadMemU32(0xE000ED00, 0x0001 Items, ...) -- CPU is running -- CPU_ReadMem(4 bytes @ 0xE000ED00) - Data: 31 C2 1F 41  returns 0x01 (0001ms, 0675ms total)
T0E20 000:708 JLINK_SetResetType(JLINKARM_RESET_TYPE_NORMAL)  returns JLINKARM_RESET_TYPE_NORMAL (0000ms, 0675ms total)
T0E20 000:708 JLINK_Reset() -- CPU is running -- CPU_WriteMem(4 bytes @ 0xE000EDF0) -- CPU is running -- CPU_WriteMem(4 bytes @ 0xE000EDFC) >0x35 TIF> -- CPU is running -- CPU_WriteMem(4 bytes @ 0xE000ED0C) -- CPU is running -- CPU_ReadMem(4 bytes @ 0xE000EDF0) -- CPU is running -- CPU_ReadMem(4 bytes @ 0xE000EDF0) -- CPU is running -- CPU_WriteMem(4 bytes @ 0xE000EDF0) -- CPU is running -- CPU_WriteMem(4 bytes @ 0xE000EDFC) -- CPU is running -- CPU_ReadMem(4 bytes @ 0xE000EDF0)
 -- CPU_WriteMem(4 bytes @ 0xE0002000) -- CPU_ReadMem(4 bytes @ 0xE000EDFC) -- CPU_ReadMem(4 bytes @ 0xE0001000) (0016ms, 0691ms total)
T0E20 000:724 JLINK_Halt()  returns 0x00 (0000ms, 0691ms total)
T0E20 000:724 JLINK_IsHalted()  returns TRUE (0000ms, 0691ms total)
T0E20 000:724 JLINK_ReadMemU32(0xE000EDF0, 0x0001 Items, ...) -- CPU_ReadMem(4 bytes @ 0xE000EDF0) - Data: 03 00 03 00  returns 0x01 (0001ms, 0692ms total)
T0E20 000:725 JLINK_WriteU32(0xE000EDF0, 0xA05F0003) -- CPU_WriteMem(4 bytes @ 0xE000EDF0)  returns 0x00 (0000ms, 0692ms total)
T0E20 000:725 JLINK_WriteU32(0xE000EDFC, 0x01000000) -- CPU_WriteMem(4 bytes @ 0xE000EDFC)  returns 0x00 (0000ms, 0692ms total)
T0E20 000:734 JLINK_GetHWStatus(...)  returns 0x00 (0000ms, 0692ms total)
T0E20 000:740 JLINK_GetNumBPUnits(Type = 0xFFFFFF00)  returns 0x06 (0000ms, 0692ms total)
T0E20 000:740 JLINK_GetNumBPUnits(Type = 0xF0)  returns 0x2000 (0000ms, 0692ms total)
T0E20 000:740 JLINK_GetNumWPUnits()  returns 0x04 (0000ms, 0692ms total)
T0E20 000:747 JLINK_GetSpeed()  returns 0xFA0 (0000ms, 0692ms total)
T0E20 000:750 JLINK_ReadMemU32(0xE000E004, 0x0001 Items, ...) -- CPU_ReadMem(4 bytes @ 0xE000E004) - Data: 01 00 00 00  returns 0x01 (0001ms, 0693ms total)
T0E20 000:751 JLINK_ReadMemU32(0xE000E004, 0x0001 Items, ...) -- CPU_ReadMem(4 bytes @ 0xE000E004) - Data: 01 00 00 00  returns 0x01 (0000ms, 0693ms total)
T0E20 000:751 JLINK_WriteMem(0xE0001000, 0x001C Bytes, ...) - Data: 01 00 00 00 00 00 00 00 00 00 00 00 00 00 00 00 ... -- CPU_WriteMem(28 bytes @ 0xE0001000)  returns 0x1C (0001ms, 0694ms total)
T0E20 000:752 JLINK_ReadMem (0xE0001000, 0x001C Bytes, ...) -- CPU_ReadMem(28 bytes @ 0xE0001000) - Data: 01 00 00 40 00 00 00 00 00 00 00 00 00 00 00 00 ...  returns 0x00 (0000ms, 0694ms total)
T0E20 000:752 JLINK_Halt()  returns 0x00 (0000ms, 0694ms total)
T0E20 000:752 JLINK_IsHalted()  returns TRUE (0000ms, 0694ms total)
T0E20 000:775 JLINK_WriteMem(0x20000000, 0x0164 Bytes, ...) - Data: 00 BE 0A E0 0D 78 2D 06 68 40 08 24 40 00 00 D3 ... -- CPU_WriteMem(356 bytes @ 0x20000000)  returns 0x164 (0002ms, 0696ms total)
T0E20 000:777 JLINK_WriteReg(R0, 0x08000000)  returns 0x00 (0000ms, 0696ms total)
T0E20 000:777 JLINK_WriteReg(R1, 0x00B71B00)  returns 0x00 (0000ms, 0696ms total)
T0E20 000:777 JLINK_WriteReg(R2, 0x00000001)  returns 0x00 (0000ms, 0696ms total)
T0E20 000:777 JLINK_WriteReg(R3, 0x00000000)  returns 0x00 (0000ms, 0696ms total)
T0E20 000:777 JLINK_WriteReg(R4, 0x00000000)  returns 0x00 (0000ms, 0696ms total)
T0E20 000:777 JLINK_WriteReg(R5, 0x00000000)  returns 0x00 (0000ms, 0696ms total)
T0E20 000:777 JLINK_WriteReg(R6, 0x00000000)  returns 0x00 (0000ms, 0696ms total)
T0E20 000:777 JLINK_WriteReg(R7, 0x00000000)  returns 0x00 (0000ms, 0696ms total)
T0E20 000:777 JLINK_WriteReg(R8, 0x00000000)  returns 0x00 (0000ms, 0696ms total)
T0E20 000:777 JLINK_WriteReg(R9, 0x20000160)  returns 0x00 (0000ms, 0696ms total)
T0E20 000:777 JLINK_WriteReg(R10, 0x00000000)  returns 0x00 (0000ms, 0696ms total)
T0E20 000:777 JLINK_WriteReg(R11, 0x00000000)  returns 0x00 (0000ms, 0696ms total)
T0E20 000:777 JLINK_WriteReg(R12, 0x00000000)  returns 0x00 (0000ms, 0696ms total)
T0E20 000:777 JLINK_WriteReg(R13 (SP), 0x20001000)  returns 0x00 (0000ms, 0696ms total)
T0E20 000:777 JLINK_WriteReg(R14, 0x20000001)  returns 0x00 (0000ms, 0696ms total)
T0E20 000:777 JLINK_WriteReg(R15 (PC), 0x20000038)  returns 0x00 (0001ms, 0697ms total)
T0E20 000:778 JLINK_WriteReg(XPSR, 0x01000000)  returns 0x00 (0000ms, 0697ms total)
T0E20 000:778 JLINK_WriteReg(MSP, 0x20001000)  returns 0x00 (0000ms, 0697ms total)
T0E20 000:778 JLINK_WriteReg(PSP, 0x20001000)  returns 0x00 (0000ms, 0697ms total)
T0E20 000:778 JLINK_WriteReg(CFBP, 0x00000000)  returns 0x00 (0000ms, 0697ms total)
T0E20 000:778 JLINK_SetBPEx(Addr = 0x20000000, Type = 0xFFFFFFF2) -- CPU_ReadMem(2 bytes @ 0x20000000)  returns 0x00000001 (0000ms, 0697ms total)
T0E20 000:778 JLINK_Go() -- CPU_WriteMem(2 bytes @ 0x20000000) -- CPU_ReadMem(4 bytes @ 0xE0001000) -- CPU_WriteMem(4 bytes @ 0xE0002008) -- CPU_WriteMem(4 bytes @ 0xE000200C) -- CPU_WriteMem(4 bytes @ 0xE0002010) -- CPU_WriteMem(4 bytes @ 0xE0002014) -- CPU_WriteMem(4 bytes @ 0xE0002018) -- CPU_WriteMem(4 bytes @ 0xE000201C) -- CPU_WriteMem(4 bytes @ 0xE0001004) (0004ms, 0701ms total)
T0E20 000:782 JLINK_IsHalted() -- CPU_ReadMem(2 bytes @ 0x20000000)  returns TRUE (0002ms, 0703ms total)
T0E20 000:784 JLINK_ReadReg(R15 (PC))  returns 0x20000000 (0000ms, 0701ms total)
T0E20 000:784 JLINK_ClrBPEx(BPHandle = 0x00000001)  returns 0x00 (0000ms, 0701ms total)
T0E20 000:784 JLINK_ReadReg(R0)  returns 0x00000000 (0000ms, 0701ms total)
T0E20 000:785 JLINK_WriteReg(R0, 0x08000000)  returns 0x00 (0000ms, 0701ms total)
T0E20 000:785 JLINK_WriteReg(R1, 0x00B71B00)  returns 0x00 (0000ms, 0701ms total)
T0E20 000:785 JLINK_WriteReg(R2, 0x00000001)  returns 0x00 (0000ms, 0701ms total)
T0E20 000:785 JLINK_WriteReg(R3, 0x00000000)  returns 0x00 (0000ms, 0701ms total)
T0E20 000:785 JLINK_WriteReg(R4, 0x00000000)  returns 0x00 (0000ms, 0701ms total)
T0E20 000:785 JLINK_WriteReg(R5, 0x00000000)  returns 0x00 (0000ms, 0701ms total)
T0E20 000:785 JLINK_WriteReg(R6, 0x00000000)  returns 0x00 (0000ms, 0701ms total)
T0E20 000:785 JLINK_WriteReg(R7, 0x00000000)  returns 0x00 (0000ms, 0701ms total)
T0E20 000:785 JLINK_WriteReg(R8, 0x00000000)  returns 0x00 (0000ms, 0701ms total)
T0E20 000:785 JLINK_WriteReg(R9, 0x20000160)  returns 0x00 (0000ms, 0701ms total)
T0E20 000:785 JLINK_WriteReg(R10, 0x00000000)  returns 0x00 (0000ms, 0701ms total)
T0E20 000:785 JLINK_WriteReg(R11, 0x00000000)  returns 0x00 (0000ms, 0701ms total)
T0E20 000:785 JLINK_WriteReg(R12, 0x00000000)  returns 0x00 (0000ms, 0701ms total)
T0E20 000:785 JLINK_WriteReg(R13 (SP), 0x20001000)  returns 0x00 (0000ms, 0701ms total)
T0E20 000:785 JLINK_WriteReg(R14, 0x20000001)  returns 0x00 (0000ms, 0701ms total)
T0E20 000:785 JLINK_WriteReg(R15 (PC), 0x2000007C)  returns 0x00 (0000ms, 0701ms total)
T0E20 000:785 JLINK_WriteReg(XPSR, 0x01000000)  returns 0x00 (0000ms, 0701ms total)
T0E20 000:785 JLINK_WriteReg(MSP, 0x20001000)  returns 0x00 (0000ms, 0701ms total)
T0E20 000:785 JLINK_WriteReg(PSP, 0x20001000)  returns 0x00 (0000ms, 0701ms total)
T0E20 000:785 JLINK_WriteReg(CFBP, 0x00000000)  returns 0x00 (0000ms, 0701ms total)
T0E20 000:785 JLINK_SetBPEx(Addr = 0x20000000, Type = 0xFFFFFFF2)  returns 0x00000002 (0000ms, 0701ms total)
T0E20 000:785 JLINK_Go() -- CPU_ReadMem(4 bytes @ 0xE0001000) (0002ms, 0703ms total)
T0E20 000:787 JLINK_IsHalted()  returns FALSE (0000ms, 0703ms total)
T0E20 000:856 JLINK_IsHalted() -- CPU_ReadMem(2 bytes @ 0x20000000)  returns TRUE (0003ms, 0706ms total)
T0E20 000:859 JLINK_ReadReg(R15 (PC))  returns 0x20000000 (0000ms, 0703ms total)
T0E20 000:859 JLINK_ClrBPEx(BPHandle = 0x00000002)  returns 0x00 (0000ms, 0703ms total)
T0E20 000:859 JLINK_ReadReg(R0)  returns 0x00000000 (0000ms, 0703ms total)
T0E20 000:910 JLINK_WriteReg(R0, 0x00000001)  returns 0x00 (0000ms, 0703ms total)
T0E20 000:910 JLINK_WriteReg(R1, 0x00B71B00)  returns 0x00 (0000ms, 0703ms total)
T0E20 000:910 JLINK_WriteReg(R2, 0x00000001)  returns 0x00 (0000ms, 0703ms total)
T0E20 000:910 JLINK_WriteReg(R3, 0x00000000)  returns 0x00 (0000ms, 0703ms total)
T0E20 000:910 JLINK_WriteReg(R4, 0x00000000)  returns 0x00 (0000ms, 0703ms total)
T0E20 000:910 JLINK_WriteReg(R5, 0x00000000)  returns 0x00 (0000ms, 0703ms total)
T0E20 000:910 JLINK_WriteReg(R6, 0x00000000)  returns 0x00 (0000ms, 0703ms total)
T0E20 000:910 JLINK_WriteReg(R7, 0x00000000)  returns 0x00 (0000ms, 0703ms total)
T0E20 000:910 JLINK_WriteReg(R8, 0x00000000)  returns 0x00 (0000ms, 0703ms total)
T0E20 000:910 JLINK_WriteReg(R9, 0x20000160)  returns 0x00 (0000ms, 0703ms total)
T0E20 000:910 JLINK_WriteReg(R10, 0x00000000)  returns 0x00 (0000ms, 0703ms total)
T0E20 000:910 JLINK_WriteReg(R11, 0x00000000)  returns 0x00 (0000ms, 0703ms total)
T0E20 000:910 JLINK_WriteReg(R12, 0x00000000)  returns 0x00 (0000ms, 0703ms total)
T0E20 000:910 JLINK_WriteReg(R13 (SP), 0x20001000)  returns 0x00 (0000ms, 0703ms total)
T0E20 000:910 JLINK_WriteReg(R14, 0x20000001)  returns 0x00 (0000ms, 0703ms total)
T0E20 000:910 JLINK_WriteReg(R15 (PC), 0x2000006A)  returns 0x00 (0000ms, 0703ms total)
T0E20 000:910 JLINK_WriteReg(XPSR, 0x01000000)  returns 0x00 (0000ms, 0703ms total)
T0E20 000:910 JLINK_WriteReg(MSP, 0x20001000)  returns 0x00 (0000ms, 0703ms total)
T0E20 000:910 JLINK_WriteReg(PSP, 0x20001000)  returns 0x00 (0000ms, 0703ms total)
T0E20 000:910 JLINK_WriteReg(CFBP, 0x00000000)  returns 0x00 (0000ms, 0703ms total)
T0E20 000:910 JLINK_SetBPEx(Addr = 0x20000000, Type = 0xFFFFFFF2)  returns 0x00000003 (0000ms, 0703ms total)
T0E20 000:910 JLINK_Go() -- CPU_ReadMem(4 bytes @ 0xE0001000) (0002ms, 0705ms total)
T0E20 000:912 JLINK_IsHalted() -- CPU_ReadMem(2 bytes @ 0x20000000)  returns TRUE (0002ms, 0707ms total)
T0E20 000:914 JLINK_ReadReg(R15 (PC))  returns 0x20000000 (0000ms, 0705ms total)
T0E20 000:914 JLINK_ClrBPEx(BPHandle = 0x00000003)  returns 0x00 (0000ms, 0705ms total)
T0E20 000:914 JLINK_ReadReg(R0)  returns 0x00000000 (0000ms, 0705ms total)
T0E20 000:918 JLINK_WriteMem(0x20000000, 0x0164 Bytes, ...) - Data: 00 BE 0A E0 0D 78 2D 06 68 40 08 24 40 00 00 D3 ... -- CPU_WriteMem(356 bytes @ 0x20000000)  returns 0x164 (0002ms, 0707ms total)
T0E20 000:920 JLINK_WriteReg(R0, 0x08000000)  returns 0x00 (0000ms, 0707ms total)
T0E20 000:920 JLINK_WriteReg(R1, 0x00B71B00)  returns 0x00 (0000ms, 0707ms total)
T0E20 000:920 JLINK_WriteReg(R2, 0x00000002)  returns 0x00 (0000ms, 0707ms total)
T0E20 000:920 JLINK_WriteReg(R3, 0x00000000)  returns 0x00 (0000ms, 0707ms total)
T0E20 000:920 JLINK_WriteReg(R4, 0x00000000)  returns 0x00 (0000ms, 0707ms total)
T0E20 000:920 JLINK_WriteReg(R5, 0x00000000)  returns 0x00 (0000ms, 0707ms total)
T0E20 000:920 JLINK_WriteReg(R6, 0x00000000)  returns 0x00 (0000ms, 0707ms total)
T0E20 000:920 JLINK_WriteReg(R7, 0x00000000)  returns 0x00 (0000ms, 0707ms total)
T0E20 000:920 JLINK_WriteReg(R8, 0x00000000)  returns 0x00 (0000ms, 0707ms total)
T0E20 000:920 JLINK_WriteReg(R9, 0x20000160)  returns 0x00 (0000ms, 0707ms total)
T0E20 000:920 JLINK_WriteReg(R10, 0x00000000)  returns 0x00 (0000ms, 0707ms total)
T0E20 000:920 JLINK_WriteReg(R11, 0x00000000)  returns 0x00 (0000ms, 0707ms total)
T0E20 000:920 JLINK_WriteReg(R12, 0x00000000)  returns 0x00 (0000ms, 0707ms total)
T0E20 000:920 JLINK_WriteReg(R13 (SP), 0x20001000)  returns 0x00 (0000ms, 0707ms total)
T0E20 000:920 JLINK_WriteReg(R14, 0x20000001)  returns 0x00 (0000ms, 0707ms total)
T0E20 000:920 JLINK_WriteReg(R15 (PC), 0x20000038)  returns 0x00 (0000ms, 0707ms total)
T0E20 000:920 JLINK_WriteReg(XPSR, 0x01000000)  returns 0x00 (0000ms, 0707ms total)
T0E20 000:920 JLINK_WriteReg(MSP, 0x20001000)  returns 0x00 (0000ms, 0707ms total)
T0E20 000:920 JLINK_WriteReg(PSP, 0x20001000)  returns 0x00 (0000ms, 0707ms total)
T0E20 000:920 JLINK_WriteReg(CFBP, 0x00000000)  returns 0x00 (0000ms, 0707ms total)
T0E20 000:920 JLINK_SetBPEx(Addr = 0x20000000, Type = 0xFFFFFFF2) -- CPU_ReadMem(2 bytes @ 0x20000000)  returns 0x00000004 (0001ms, 0708ms total)
T0E20 000:921 JLINK_Go() -- CPU_WriteMem(2 bytes @ 0x20000000) -- CPU_ReadMem(4 bytes @ 0xE0001000) (0002ms, 0710ms total)
T0E20 000:923 JLINK_IsHalted() -- CPU_ReadMem(2 bytes @ 0x20000000)  returns TRUE (0003ms, 0713ms total)
T0E20 000:926 JLINK_ReadReg(R15 (PC))  returns 0x20000000 (0000ms, 0710ms total)
T0E20 000:926 JLINK_ClrBPEx(BPHandle = 0x00000004)  returns 0x00 (0000ms, 0710ms total)
T0E20 000:926 JLINK_ReadReg(R0)  returns 0x00000000 (0000ms, 0710ms total)
T0E20 000:926 JLINK_WriteMem(0x20000164, 0x0400 Bytes, ...) - Data: 30 15 00 20 01 01 00 08 F1 32 00 08 BD 31 00 08 ... -- CPU_WriteMem(1024 bytes @ 0x20000164)  returns 0x400 (0004ms, 0714ms total)
T0E20 000:930 JLINK_WriteReg(R0, 0x08000000)  returns 0x00 (0000ms, 0714ms total)
T0E20 000:930 JLINK_WriteReg(R1, 0x00000400)  returns 0x00 (0000ms, 0714ms total)
T0E20 000:930 JLINK_WriteReg(R2, 0x20000164)  returns 0x00 (0000ms, 0714ms total)
T0E20 000:930 JLINK_WriteReg(R3, 0x00000000)  returns 0x00 (0000ms, 0714ms total)
T0E20 000:930 JLINK_WriteReg(R4, 0x00000000)  returns 0x00 (0000ms, 0714ms total)
T0E20 000:930 JLINK_WriteReg(R5, 0x00000000)  returns 0x00 (0000ms, 0714ms total)
T0E20 000:930 JLINK_WriteReg(R6, 0x00000000)  returns 0x00 (0000ms, 0714ms total)
T0E20 000:930 JLINK_WriteReg(R7, 0x00000000)  returns 0x00 (0000ms, 0714ms total)
T0E20 000:930 JLINK_WriteReg(R8, 0x00000000)  returns 0x00 (0000ms, 0714ms total)
T0E20 000:930 JLINK_WriteReg(R9, 0x20000160)  returns 0x00 (0000ms, 0714ms total)
T0E20 000:930 JLINK_WriteReg(R10, 0x00000000)  returns 0x00 (0000ms, 0714ms total)
T0E20 000:930 JLINK_WriteReg(R11, 0x00000000)  returns 0x00 (0000ms, 0714ms total)
T0E20 000:930 JLINK_WriteReg(R12, 0x00000000)  returns 0x00 (0000ms, 0714ms total)
T0E20 000:930 JLINK_WriteReg(R13 (SP), 0x20001000)  returns 0x00 (0000ms, 0714ms total)
T0E20 000:930 JLINK_WriteReg(R14, 0x20000001)  returns 0x00 (0000ms, 0714ms total)
T0E20 000:930 JLINK_WriteReg(R15 (PC), 0x200000F4)  returns 0x00 (0000ms, 0714ms total)
T0E20 000:930 JLINK_WriteReg(XPSR, 0x01000000)  returns 0x00 (0000ms, 0714ms total)
T0E20 000:930 JLINK_WriteReg(MSP, 0x20001000)  returns 0x00 (0000ms, 0714ms total)
T0E20 000:930 JLINK_WriteReg(PSP, 0x20001000)  returns 0x00 (0000ms, 0714ms total)
T0E20 000:930 JLINK_WriteReg(CFBP, 0x00000000)  returns 0x00 (0000ms, 0714ms total)
T0E20 000:930 JLINK_SetBPEx(Addr = 0x20000000, Type = 0xFFFFFFF2)  returns 0x00000005 (0000ms, 0714ms total)
T0E20 000:930 JLINK_Go() -- CPU_ReadMem(4 bytes @ 0xE0001000) (0002ms, 0716ms total)
T0E20 000:932 JLINK_IsHalted()  returns FALSE (0000ms, 0716ms total)
T0E20 000:941 JLINK_IsHalted()  returns FALSE (0000ms, 0716ms total)
T0E20 000:942 JLINK_IsHalted()  returns FALSE (0000ms, 0716ms total)
T0E20 000:944 JLINK_IsHalted()  returns FALSE (0000ms, 0716ms total)
T0E20 000:945 JLINK_IsHalted()  returns FALSE (0000ms, 0716ms total)
T0E20 000:947 JLINK_IsHalted()  returns FALSE (0000ms, 0716ms total)
T0E20 000:950 JLINK_IsHalted()  returns FALSE (0000ms, 0716ms total)
T0E20 000:952 JLINK_IsHalted()  returns FALSE (0000ms, 0716ms total)
T0E20 000:953 JLINK_IsHalted()  returns FALSE (0000ms, 0716ms total)
T0E20 000:955 JLINK_IsHalted()  returns FALSE (0000ms, 0716ms total)
T0E20 000:957 JLINK_IsHalted()  returns FALSE (0000ms, 0716ms total)
T0E20 000:958 JLINK_IsHalted()  returns FALSE (0000ms, 0716ms total)
T0E20 000:960 JLINK_IsHalted()  returns FALSE (0000ms, 0716ms total)
T0E20 000:961 JLINK_IsHalted()  returns FALSE (0000ms, 0716ms total)
T0E20 000:963 JLINK_IsHalted() -- CPU_ReadMem(2 bytes @ 0x20000000)  returns TRUE (0002ms, 0718ms total)
T0E20 000:965 JLINK_ReadReg(R15 (PC))  returns 0x20000000 (0000ms, 0716ms total)
T0E20 000:965 JLINK_ClrBPEx(BPHandle = 0x00000005)  returns 0x00 (0000ms, 0716ms total)
T0E20 000:965 JLINK_ReadReg(R0)  returns 0x00000000 (0000ms, 0716ms total)
T0E20 000:965 JLINK_WriteMem(0x20000164, 0x0400 Bytes, ...) - Data: 21 F0 00 45 14 46 4F F0 00 0A 23 F0 00 41 50 EA ... -- CPU_WriteMem(1024 bytes @ 0x20000164)  returns 0x400 (0004ms, 0720ms total)
T0E20 000:969 JLINK_WriteReg(R0, 0x08000400)  returns 0x00 (0000ms, 0720ms total)
T0E20 000:969 JLINK_WriteReg(R1, 0x00000400)  returns 0x00 (0000ms, 0720ms total)
T0E20 000:969 JLINK_WriteReg(R2, 0x20000164)  returns 0x00 (0000ms, 0720ms total)
T0E20 000:969 JLINK_WriteReg(R3, 0x00000000)  returns 0x00 (0000ms, 0720ms total)
T0E20 000:969 JLINK_WriteReg(R4, 0x00000000)  returns 0x00 (0000ms, 0720ms total)
T0E20 000:969 JLINK_WriteReg(R5, 0x00000000)  returns 0x00 (0000ms, 0720ms total)
T0E20 000:969 JLINK_WriteReg(R6, 0x00000000)  returns 0x00 (0000ms, 0720ms total)
T0E20 000:969 JLINK_WriteReg(R7, 0x00000000)  returns 0x00 (0000ms, 0720ms total)
T0E20 000:969 JLINK_WriteReg(R8, 0x00000000)  returns 0x00 (0000ms, 0720ms total)
T0E20 000:969 JLINK_WriteReg(R9, 0x20000160)  returns 0x00 (0000ms, 0720ms total)
T0E20 000:969 JLINK_WriteReg(R10, 0x00000000)  returns 0x00 (0000ms, 0720ms total)
T0E20 000:969 JLINK_WriteReg(R11, 0x00000000)  returns 0x00 (0000ms, 0720ms total)
T0E20 000:969 JLINK_WriteReg(R12, 0x00000000)  returns 0x00 (0000ms, 0720ms total)
T0E20 000:969 JLINK_WriteReg(R13 (SP), 0x20001000)  returns 0x00 (0000ms, 0720ms total)
T0E20 000:969 JLINK_WriteReg(R14, 0x20000001)  returns 0x00 (0000ms, 0720ms total)
T0E20 000:969 JLINK_WriteReg(R15 (PC), 0x200000F4)  returns 0x00 (0000ms, 0720ms total)
T0E20 000:969 JLINK_WriteReg(XPSR, 0x01000000)  returns 0x00 (0000ms, 0720ms total)
T0E20 000:969 JLINK_WriteReg(MSP, 0x20001000)  returns 0x00 (0001ms, 0721ms total)
T0E20 000:970 JLINK_WriteReg(PSP, 0x20001000)  returns 0x00 (0000ms, 0721ms total)
T0E20 000:970 JLINK_WriteReg(CFBP, 0x00000000)  returns 0x00 (0000ms, 0721ms total)
T0E20 000:970 JLINK_SetBPEx(Addr = 0x20000000, Type = 0xFFFFFFF2)  returns 0x00000006 (0000ms, 0721ms total)
T0E20 000:970 JLINK_Go() -- CPU_ReadMem(4 bytes @ 0xE0001000) (0001ms, 0722ms total)
T0E20 000:971 JLINK_IsHalted()  returns FALSE (0001ms, 0723ms total)
T0E20 000:976 JLINK_IsHalted()  returns FALSE (0000ms, 0722ms total)
T0E20 000:979 JLINK_IsHalted()  returns FALSE (0000ms, 0722ms total)
T0E20 000:981 JLINK_IsHalted()  returns FALSE (0000ms, 0722ms total)
T0E20 000:983 JLINK_IsHalted()  returns FALSE (0000ms, 0722ms total)
T0E20 000:984 JLINK_IsHalted()  returns FALSE (0000ms, 0722ms total)
T0E20 000:986 JLINK_IsHalted()  returns FALSE (0000ms, 0722ms total)
T0E20 000:987 JLINK_IsHalted()  returns FALSE (0000ms, 0722ms total)
T0E20 000:989 JLINK_IsHalted()  returns FALSE (0000ms, 0722ms total)
T0E20 000:991 JLINK_IsHalted()  returns FALSE (0000ms, 0722ms total)
T0E20 000:992 JLINK_IsHalted()  returns FALSE (0000ms, 0722ms total)
T0E20 000:998 JLINK_IsHalted()  returns FALSE (0000ms, 0722ms total)
T0E20 001:000 JLINK_IsHalted()  returns FALSE (0000ms, 0722ms total)
T0E20 001:002 JLINK_IsHalted() -- CPU_ReadMem(2 bytes @ 0x20000000)  returns TRUE (0002ms, 0724ms total)
T0E20 001:004 JLINK_ReadReg(R15 (PC))  returns 0x20000000 (0000ms, 0722ms total)
T0E20 001:004 JLINK_ClrBPEx(BPHandle = 0x00000006)  returns 0x00 (0000ms, 0722ms total)
T0E20 001:004 JLINK_ReadReg(R0)  returns 0x00000000 (0000ms, 0722ms total)
T0E20 001:005 JLINK_WriteMem(0x20000164, 0x0400 Bytes, ...) - Data: 84 B2 B4 42 F2 DB 68 1E C5 B2 00 24 10 E0 15 48 ... -- CPU_WriteMem(1024 bytes @ 0x20000164)  returns 0x400 (0004ms, 0726ms total)
T0E20 001:009 JLINK_WriteReg(R0, 0x08000800)  returns 0x00 (0000ms, 0726ms total)
T0E20 001:009 JLINK_WriteReg(R1, 0x00000400)  returns 0x00 (0000ms, 0726ms total)
T0E20 001:009 JLINK_WriteReg(R2, 0x20000164)  returns 0x00 (0000ms, 0726ms total)
T0E20 001:009 JLINK_WriteReg(R3, 0x00000000)  returns 0x00 (0000ms, 0726ms total)
T0E20 001:009 JLINK_WriteReg(R4, 0x00000000)  returns 0x00 (0000ms, 0726ms total)
T0E20 001:009 JLINK_WriteReg(R5, 0x00000000)  returns 0x00 (0000ms, 0726ms total)
T0E20 001:009 JLINK_WriteReg(R6, 0x00000000)  returns 0x00 (0000ms, 0726ms total)
T0E20 001:009 JLINK_WriteReg(R7, 0x00000000)  returns 0x00 (0000ms, 0726ms total)
T0E20 001:009 JLINK_WriteReg(R8, 0x00000000)  returns 0x00 (0000ms, 0726ms total)
T0E20 001:009 JLINK_WriteReg(R9, 0x20000160)  returns 0x00 (0000ms, 0726ms total)
T0E20 001:009 JLINK_WriteReg(R10, 0x00000000)  returns 0x00 (0000ms, 0726ms total)
T0E20 001:009 JLINK_WriteReg(R11, 0x00000000)  returns 0x00 (0000ms, 0726ms total)
T0E20 001:009 JLINK_WriteReg(R12, 0x00000000)  returns 0x00 (0000ms, 0726ms total)
T0E20 001:009 JLINK_WriteReg(R13 (SP), 0x20001000)  returns 0x00 (0000ms, 0726ms total)
T0E20 001:009 JLINK_WriteReg(R14, 0x20000001)  returns 0x00 (0000ms, 0726ms total)
T0E20 001:009 JLINK_WriteReg(R15 (PC), 0x200000F4)  returns 0x00 (0000ms, 0726ms total)
T0E20 001:009 JLINK_WriteReg(XPSR, 0x01000000)  returns 0x00 (0000ms, 0726ms total)
T0E20 001:009 JLINK_WriteReg(MSP, 0x20001000)  returns 0x00 (0000ms, 0726ms total)
T0E20 001:009 JLINK_WriteReg(PSP, 0x20001000)  returns 0x00 (0000ms, 0726ms total)
T0E20 001:009 JLINK_WriteReg(CFBP, 0x00000000)  returns 0x00 (0000ms, 0726ms total)
T0E20 001:009 JLINK_SetBPEx(Addr = 0x20000000, Type = 0xFFFFFFF2)  returns 0x00000007 (0000ms, 0726ms total)
T0E20 001:009 JLINK_Go() -- CPU_ReadMem(4 bytes @ 0xE0001000) (0002ms, 0728ms total)
T0E20 001:011 JLINK_IsHalted()  returns FALSE (0000ms, 0728ms total)
T0E20 001:014 JLINK_IsHalted()  returns FALSE (0000ms, 0728ms total)
T0E20 001:016 JLINK_IsHalted()  returns FALSE (0000ms, 0728ms total)
T0E20 001:018 JLINK_IsHalted()  returns FALSE (0000ms, 0728ms total)
T0E20 001:020 JLINK_IsHalted()  returns FALSE (0000ms, 0728ms total)
T0E20 001:022 JLINK_IsHalted()  returns FALSE (0000ms, 0728ms total)
T0E20 001:024 JLINK_IsHalted()  returns FALSE (0000ms, 0728ms total)
T0E20 001:029 JLINK_IsHalted()  returns FALSE (0000ms, 0728ms total)
T0E20 001:031 JLINK_IsHalted()  returns FALSE (0000ms, 0728ms total)
T0E20 001:033 JLINK_IsHalted()  returns FALSE (0000ms, 0728ms total)
T0E20 001:035 JLINK_IsHalted()  returns FALSE (0000ms, 0728ms total)
T0E20 001:037 JLINK_IsHalted()  returns FALSE (0000ms, 0728ms total)
T0E20 001:039 JLINK_IsHalted()  returns FALSE (0000ms, 0728ms total)
T0E20 001:042 JLINK_IsHalted() -- CPU_ReadMem(2 bytes @ 0x20000000)  returns TRUE (0002ms, 0730ms total)
T0E20 001:044 JLINK_ReadReg(R15 (PC))  returns 0x20000000 (0000ms, 0728ms total)
T0E20 001:044 JLINK_ClrBPEx(BPHandle = 0x00000007)  returns 0x00 (0000ms, 0728ms total)
T0E20 001:044 JLINK_ReadReg(R0)  returns 0x00000000 (0000ms, 0728ms total)
T0E20 001:044 JLINK_WriteMem(0x20000164, 0x0400 Bytes, ...) - Data: A4 EB 41 01 09 B1 60 1C 84 B2 20 46 04 EB D0 71 ... -- CPU_WriteMem(1024 bytes @ 0x20000164)  returns 0x400 (0004ms, 0732ms total)
T0E20 001:048 JLINK_WriteReg(R0, 0x08000C00)  returns 0x00 (0000ms, 0732ms total)
T0E20 001:048 JLINK_WriteReg(R1, 0x00000400)  returns 0x00 (0000ms, 0732ms total)
T0E20 001:048 JLINK_WriteReg(R2, 0x20000164)  returns 0x00 (0000ms, 0732ms total)
T0E20 001:048 JLINK_WriteReg(R3, 0x00000000)  returns 0x00 (0000ms, 0732ms total)
T0E20 001:048 JLINK_WriteReg(R4, 0x00000000)  returns 0x00 (0000ms, 0732ms total)
T0E20 001:048 JLINK_WriteReg(R5, 0x00000000)  returns 0x00 (0000ms, 0732ms total)
T0E20 001:048 JLINK_WriteReg(R6, 0x00000000)  returns 0x00 (0000ms, 0732ms total)
T0E20 001:048 JLINK_WriteReg(R7, 0x00000000)  returns 0x00 (0000ms, 0732ms total)
T0E20 001:048 JLINK_WriteReg(R8, 0x00000000)  returns 0x00 (0000ms, 0732ms total)
T0E20 001:048 JLINK_WriteReg(R9, 0x20000160)  returns 0x00 (0000ms, 0732ms total)
T0E20 001:048 JLINK_WriteReg(R10, 0x00000000)  returns 0x00 (0000ms, 0732ms total)
T0E20 001:048 JLINK_WriteReg(R11, 0x00000000)  returns 0x00 (0000ms, 0732ms total)
T0E20 001:048 JLINK_WriteReg(R12, 0x00000000)  returns 0x00 (0001ms, 0733ms total)
T0E20 001:049 JLINK_WriteReg(R13 (SP), 0x20001000)  returns 0x00 (0000ms, 0733ms total)
T0E20 001:049 JLINK_WriteReg(R14, 0x20000001)  returns 0x00 (0000ms, 0733ms total)
T0E20 001:049 JLINK_WriteReg(R15 (PC), 0x200000F4)  returns 0x00 (0000ms, 0733ms total)
T0E20 001:049 JLINK_WriteReg(XPSR, 0x01000000)  returns 0x00 (0000ms, 0733ms total)
T0E20 001:049 JLINK_WriteReg(MSP, 0x20001000)  returns 0x00 (0000ms, 0733ms total)
T0E20 001:049 JLINK_WriteReg(PSP, 0x20001000)  returns 0x00 (0000ms, 0733ms total)
T0E20 001:049 JLINK_WriteReg(CFBP, 0x00000000)  returns 0x00 (0000ms, 0733ms total)
T0E20 001:049 JLINK_SetBPEx(Addr = 0x20000000, Type = 0xFFFFFFF2)  returns 0x00000008 (0000ms, 0733ms total)
T0E20 001:049 JLINK_Go() -- CPU_ReadMem(4 bytes @ 0xE0001000) (0001ms, 0734ms total)
T0E20 001:050 JLINK_IsHalted()  returns FALSE (0001ms, 0735ms total)
T0E20 001:053 JLINK_IsHalted()  returns FALSE (0000ms, 0734ms total)
T0E20 001:055 JLINK_IsHalted()  returns FALSE (0000ms, 0734ms total)
T0E20 001:059 JLINK_IsHalted()  returns FALSE (0000ms, 0734ms total)
T0E20 001:061 JLINK_IsHalted()  returns FALSE (0000ms, 0734ms total)
T0E20 001:063 JLINK_IsHalted()  returns FALSE (0000ms, 0734ms total)
T0E20 001:065 JLINK_IsHalted()  returns FALSE (0000ms, 0734ms total)
T0E20 001:067 JLINK_IsHalted()  returns FALSE (0000ms, 0734ms total)
T0E20 001:069 JLINK_IsHalted()  returns FALSE (0000ms, 0734ms total)
T0E20 001:071 JLINK_IsHalted()  returns FALSE (0000ms, 0734ms total)
T0E20 001:075 JLINK_IsHalted()  returns FALSE (0000ms, 0734ms total)
T0E20 001:077 JLINK_IsHalted()  returns FALSE (0000ms, 0734ms total)
T0E20 001:079 JLINK_IsHalted()  returns FALSE (0000ms, 0734ms total)
T0E20 001:081 JLINK_IsHalted()  returns FALSE (0000ms, 0734ms total)
T0E20 001:083 JLINK_IsHalted() -- CPU_ReadMem(2 bytes @ 0x20000000)  returns TRUE (0002ms, 0736ms total)
T0E20 001:085 JLINK_ReadReg(R15 (PC))  returns 0x20000000 (0000ms, 0734ms total)
T0E20 001:085 JLINK_ClrBPEx(BPHandle = 0x00000008)  returns 0x00 (0000ms, 0734ms total)
T0E20 001:085 JLINK_ReadReg(R0)  returns 0x00000000 (0000ms, 0734ms total)
T0E20 001:085 JLINK_WriteMem(0x20000164, 0x0400 Bytes, ...) - Data: 00 FB 04 B0 00 90 01 99 FF F7 54 FD 4C F2 50 30 ... -- CPU_WriteMem(1024 bytes @ 0x20000164)  returns 0x400 (0004ms, 0738ms total)
T0E20 001:089 JLINK_WriteReg(R0, 0x08001000)  returns 0x00 (0000ms, 0738ms total)
T0E20 001:089 JLINK_WriteReg(R1, 0x00000400)  returns 0x00 (0001ms, 0739ms total)
T0E20 001:090 JLINK_WriteReg(R2, 0x20000164)  returns 0x00 (0000ms, 0739ms total)
T0E20 001:090 JLINK_WriteReg(R3, 0x00000000)  returns 0x00 (0000ms, 0739ms total)
T0E20 001:090 JLINK_WriteReg(R4, 0x00000000)  returns 0x00 (0000ms, 0739ms total)
T0E20 001:090 JLINK_WriteReg(R5, 0x00000000)  returns 0x00 (0000ms, 0739ms total)
T0E20 001:090 JLINK_WriteReg(R6, 0x00000000)  returns 0x00 (0000ms, 0739ms total)
T0E20 001:090 JLINK_WriteReg(R7, 0x00000000)  returns 0x00 (0000ms, 0739ms total)
T0E20 001:090 JLINK_WriteReg(R8, 0x00000000)  returns 0x00 (0000ms, 0739ms total)
T0E20 001:090 JLINK_WriteReg(R9, 0x20000160)  returns 0x00 (0000ms, 0739ms total)
T0E20 001:090 JLINK_WriteReg(R10, 0x00000000)  returns 0x00 (0000ms, 0739ms total)
T0E20 001:090 JLINK_WriteReg(R11, 0x00000000)  returns 0x00 (0000ms, 0739ms total)
T0E20 001:090 JLINK_WriteReg(R12, 0x00000000)  returns 0x00 (0000ms, 0739ms total)
T0E20 001:090 JLINK_WriteReg(R13 (SP), 0x20001000)  returns 0x00 (0000ms, 0739ms total)
T0E20 001:090 JLINK_WriteReg(R14, 0x20000001)  returns 0x00 (0000ms, 0739ms total)
T0E20 001:090 JLINK_WriteReg(R15 (PC), 0x200000F4)  returns 0x00 (0000ms, 0739ms total)
T0E20 001:090 JLINK_WriteReg(XPSR, 0x01000000)  returns 0x00 (0000ms, 0739ms total)
T0E20 001:090 JLINK_WriteReg(MSP, 0x20001000)  returns 0x00 (0000ms, 0739ms total)
T0E20 001:090 JLINK_WriteReg(PSP, 0x20001000)  returns 0x00 (0000ms, 0739ms total)
T0E20 001:090 JLINK_WriteReg(CFBP, 0x00000000)  returns 0x00 (0000ms, 0739ms total)
T0E20 001:090 JLINK_SetBPEx(Addr = 0x20000000, Type = 0xFFFFFFF2)  returns 0x00000009 (0000ms, 0739ms total)
T0E20 001:090 JLINK_Go() -- CPU_ReadMem(4 bytes @ 0xE0001000) (0001ms, 0740ms total)
T0E20 001:091 JLINK_IsHalted()  returns FALSE (0001ms, 0741ms total)
T0E20 001:095 JLINK_IsHalted()  returns FALSE (0000ms, 0740ms total)
T0E20 001:097 JLINK_IsHalted()  returns FALSE (0000ms, 0740ms total)
T0E20 001:099 JLINK_IsHalted()  returns FALSE (0000ms, 0740ms total)
T0E20 001:101 JLINK_IsHalted()  returns FALSE (0000ms, 0740ms total)
T0E20 001:103 JLINK_IsHalted()  returns FALSE (0000ms, 0740ms total)
T0E20 001:106 JLINK_IsHalted()  returns FALSE (0000ms, 0740ms total)
T0E20 001:108 JLINK_IsHalted()  returns FALSE (0000ms, 0740ms total)
T0E20 001:110 JLINK_IsHalted()  returns FALSE (0000ms, 0740ms total)
T0E20 001:112 JLINK_IsHalted()  returns FALSE (0000ms, 0740ms total)
T0E20 001:114 JLINK_IsHalted()  returns FALSE (0000ms, 0740ms total)
T0E20 001:116 JLINK_IsHalted()  returns FALSE (0000ms, 0740ms total)
T0E20 001:118 JLINK_IsHalted()  returns FALSE (0000ms, 0740ms total)
T0E20 001:122 JLINK_IsHalted()  returns FALSE (0000ms, 0740ms total)
T0E20 001:124 JLINK_IsHalted() -- CPU_ReadMem(2 bytes @ 0x20000000)  returns TRUE (0002ms, 0742ms total)
T0E20 001:126 JLINK_ReadReg(R15 (PC))  returns 0x20000000 (0000ms, 0740ms total)
T0E20 001:126 JLINK_ClrBPEx(BPHandle = 0x00000009)  returns 0x00 (0000ms, 0740ms total)
T0E20 001:126 JLINK_ReadReg(R0)  returns 0x00000000 (0000ms, 0740ms total)
T0E20 001:126 JLINK_WriteMem(0x20000164, 0x0400 Bytes, ...) - Data: 70 47 00 00 04 00 00 20 70 B5 04 46 0C B9 01 20 ... -- CPU_WriteMem(1024 bytes @ 0x20000164)  returns 0x400 (0004ms, 0744ms total)
T0E20 001:130 JLINK_WriteReg(R0, 0x08001400)  returns 0x00 (0000ms, 0744ms total)
T0E20 001:130 JLINK_WriteReg(R1, 0x00000400)  returns 0x00 (0000ms, 0744ms total)
T0E20 001:130 JLINK_WriteReg(R2, 0x20000164)  returns 0x00 (0000ms, 0744ms total)
T0E20 001:130 JLINK_WriteReg(R3, 0x00000000)  returns 0x00 (0000ms, 0744ms total)
T0E20 001:130 JLINK_WriteReg(R4, 0x00000000)  returns 0x00 (0000ms, 0744ms total)
T0E20 001:130 JLINK_WriteReg(R5, 0x00000000)  returns 0x00 (0000ms, 0744ms total)
T0E20 001:130 JLINK_WriteReg(R6, 0x00000000)  returns 0x00 (0000ms, 0744ms total)
T0E20 001:130 JLINK_WriteReg(R7, 0x00000000)  returns 0x00 (0000ms, 0744ms total)
T0E20 001:130 JLINK_WriteReg(R8, 0x00000000)  returns 0x00 (0000ms, 0744ms total)
T0E20 001:130 JLINK_WriteReg(R9, 0x20000160)  returns 0x00 (0000ms, 0744ms total)
T0E20 001:130 JLINK_WriteReg(R10, 0x00000000)  returns 0x00 (0000ms, 0744ms total)
T0E20 001:130 JLINK_WriteReg(R11, 0x00000000)  returns 0x00 (0000ms, 0744ms total)
T0E20 001:130 JLINK_WriteReg(R12, 0x00000000)  returns 0x00 (0000ms, 0744ms total)
T0E20 001:130 JLINK_WriteReg(R13 (SP), 0x20001000)  returns 0x00 (0000ms, 0744ms total)
T0E20 001:130 JLINK_WriteReg(R14, 0x20000001)  returns 0x00 (0000ms, 0744ms total)
T0E20 001:130 JLINK_WriteReg(R15 (PC), 0x200000F4)  returns 0x00 (0000ms, 0744ms total)
T0E20 001:130 JLINK_WriteReg(XPSR, 0x01000000)  returns 0x00 (0001ms, 0745ms total)
T0E20 001:131 JLINK_WriteReg(MSP, 0x20001000)  returns 0x00 (0000ms, 0745ms total)
T0E20 001:131 JLINK_WriteReg(PSP, 0x20001000)  returns 0x00 (0000ms, 0745ms total)
T0E20 001:131 JLINK_WriteReg(CFBP, 0x00000000)  returns 0x00 (0000ms, 0745ms total)
T0E20 001:131 JLINK_SetBPEx(Addr = 0x20000000, Type = 0xFFFFFFF2)  returns 0x0000000A (0000ms, 0745ms total)
T0E20 001:131 JLINK_Go() -- CPU_ReadMem(4 bytes @ 0xE0001000) (0001ms, 0746ms total)
T0E20 001:132 JLINK_IsHalted()  returns FALSE (0001ms, 0747ms total)
T0E20 001:138 JLINK_IsHalted()  returns FALSE (0000ms, 0746ms total)
T0E20 001:140 JLINK_IsHalted()  returns FALSE (0000ms, 0746ms total)
T0E20 001:142 JLINK_IsHalted()  returns FALSE (0000ms, 0746ms total)
T0E20 001:144 JLINK_IsHalted()  returns FALSE (0000ms, 0746ms total)
T0E20 001:146 JLINK_IsHalted()  returns FALSE (0000ms, 0746ms total)
T0E20 001:148 JLINK_IsHalted()  returns FALSE (0000ms, 0746ms total)
T0E20 001:150 JLINK_IsHalted()  returns FALSE (0000ms, 0746ms total)
T0E20 001:152 JLINK_IsHalted()  returns FALSE (0000ms, 0746ms total)
T0E20 001:154 JLINK_IsHalted()  returns FALSE (0000ms, 0746ms total)
T0E20 001:156 JLINK_IsHalted()  returns FALSE (0000ms, 0746ms total)
T0E20 001:158 JLINK_IsHalted()  returns FALSE (0000ms, 0746ms total)
T0E20 001:160 JLINK_IsHalted()  returns FALSE (0000ms, 0746ms total)
T0E20 001:162 JLINK_IsHalted()  returns FALSE (0000ms, 0746ms total)
T0E20 001:164 JLINK_IsHalted() -- CPU_ReadMem(2 bytes @ 0x20000000)  returns TRUE (0002ms, 0748ms total)
T0E20 001:166 JLINK_ReadReg(R15 (PC))  returns 0x20000000 (0000ms, 0746ms total)
T0E20 001:166 JLINK_ClrBPEx(BPHandle = 0x0000000A)  returns 0x00 (0000ms, 0746ms total)
T0E20 001:166 JLINK_ReadReg(R0)  returns 0x00000000 (0000ms, 0746ms total)
T0E20 001:166 JLINK_WriteMem(0x20000164, 0x0400 Bytes, ...) - Data: 80 70 36 49 08 60 FF F7 F9 FD 06 46 06 E0 FF F7 ... -- CPU_WriteMem(1024 bytes @ 0x20000164)  returns 0x400 (0004ms, 0750ms total)
T0E20 001:170 JLINK_WriteReg(R0, 0x08001800)  returns 0x00 (0000ms, 0750ms total)
T0E20 001:170 JLINK_WriteReg(R1, 0x00000400)  returns 0x00 (0000ms, 0750ms total)
T0E20 001:170 JLINK_WriteReg(R2, 0x20000164)  returns 0x00 (0000ms, 0750ms total)
T0E20 001:170 JLINK_WriteReg(R3, 0x00000000)  returns 0x00 (0000ms, 0750ms total)
T0E20 001:170 JLINK_WriteReg(R4, 0x00000000)  returns 0x00 (0000ms, 0750ms total)
T0E20 001:170 JLINK_WriteReg(R5, 0x00000000)  returns 0x00 (0000ms, 0750ms total)
T0E20 001:170 JLINK_WriteReg(R6, 0x00000000)  returns 0x00 (0000ms, 0750ms total)
T0E20 001:170 JLINK_WriteReg(R7, 0x00000000)  returns 0x00 (0000ms, 0750ms total)
T0E20 001:170 JLINK_WriteReg(R8, 0x00000000)  returns 0x00 (0000ms, 0750ms total)
T0E20 001:170 JLINK_WriteReg(R9, 0x20000160)  returns 0x00 (0001ms, 0751ms total)
T0E20 001:171 JLINK_WriteReg(R10, 0x00000000)  returns 0x00 (0000ms, 0751ms total)
T0E20 001:171 JLINK_WriteReg(R11, 0x00000000)  returns 0x00 (0000ms, 0751ms total)
T0E20 001:171 JLINK_WriteReg(R12, 0x00000000)  returns 0x00 (0000ms, 0751ms total)
T0E20 001:171 JLINK_WriteReg(R13 (SP), 0x20001000)  returns 0x00 (0000ms, 0751ms total)
T0E20 001:171 JLINK_WriteReg(R14, 0x20000001)  returns 0x00 (0000ms, 0751ms total)
T0E20 001:171 JLINK_WriteReg(R15 (PC), 0x200000F4)  returns 0x00 (0000ms, 0751ms total)
T0E20 001:171 JLINK_WriteReg(XPSR, 0x01000000)  returns 0x00 (0000ms, 0751ms total)
T0E20 001:171 JLINK_WriteReg(MSP, 0x20001000)  returns 0x00 (0000ms, 0751ms total)
T0E20 001:171 JLINK_WriteReg(PSP, 0x20001000)  returns 0x00 (0000ms, 0751ms total)
T0E20 001:171 JLINK_WriteReg(CFBP, 0x00000000)  returns 0x00 (0000ms, 0751ms total)
T0E20 001:171 JLINK_SetBPEx(Addr = 0x20000000, Type = 0xFFFFFFF2)  returns 0x0000000B (0000ms, 0751ms total)
T0E20 001:171 JLINK_Go() -- CPU_ReadMem(4 bytes @ 0xE0001000) (0001ms, 0752ms total)
T0E20 001:172 JLINK_IsHalted()  returns FALSE (0001ms, 0753ms total)
T0E20 001:177 JLINK_IsHalted()  returns FALSE (0000ms, 0752ms total)
T0E20 001:179 JLINK_IsHalted()  returns FALSE (0000ms, 0752ms total)
T0E20 001:181 JLINK_IsHalted()  returns FALSE (0000ms, 0752ms total)
T0E20 001:185 JLINK_IsHalted()  returns FALSE (0000ms, 0752ms total)
T0E20 001:187 JLINK_IsHalted()  returns FALSE (0000ms, 0752ms total)
T0E20 001:189 JLINK_IsHalted()  returns FALSE (0000ms, 0752ms total)
T0E20 001:191 JLINK_IsHalted()  returns FALSE (0000ms, 0752ms total)
T0E20 001:193 JLINK_IsHalted()  returns FALSE (0000ms, 0752ms total)
T0E20 001:195 JLINK_IsHalted()  returns FALSE (0000ms, 0752ms total)
T0E20 001:197 JLINK_IsHalted()  returns FALSE (0000ms, 0752ms total)
T0E20 001:200 JLINK_IsHalted()  returns FALSE (0000ms, 0752ms total)
T0E20 001:202 JLINK_IsHalted()  returns FALSE (0000ms, 0752ms total)
T0E20 001:204 JLINK_IsHalted() -- CPU_ReadMem(2 bytes @ 0x20000000)  returns TRUE (0002ms, 0754ms total)
T0E20 001:206 JLINK_ReadReg(R15 (PC))  returns 0x20000000 (0000ms, 0752ms total)
T0E20 001:206 JLINK_ClrBPEx(BPHandle = 0x0000000B)  returns 0x00 (0000ms, 0752ms total)
T0E20 001:206 JLINK_ReadReg(R0)  returns 0x00000000 (0000ms, 0752ms total)
T0E20 001:207 JLINK_WriteMem(0x20000164, 0x0400 Bytes, ...) - Data: B0 F5 80 3F 06 D1 E7 48 00 68 40 F4 80 30 E5 49 ... -- CPU_WriteMem(1024 bytes @ 0x20000164)  returns 0x400 (0003ms, 0755ms total)
T0E20 001:210 JLINK_WriteReg(R0, 0x08001C00)  returns 0x00 (0000ms, 0755ms total)
T0E20 001:210 JLINK_WriteReg(R1, 0x00000400)  returns 0x00 (0001ms, 0756ms total)
T0E20 001:211 JLINK_WriteReg(R2, 0x20000164)  returns 0x00 (0000ms, 0756ms total)
T0E20 001:211 JLINK_WriteReg(R3, 0x00000000)  returns 0x00 (0000ms, 0756ms total)
T0E20 001:211 JLINK_WriteReg(R4, 0x00000000)  returns 0x00 (0000ms, 0756ms total)
T0E20 001:211 JLINK_WriteReg(R5, 0x00000000)  returns 0x00 (0000ms, 0756ms total)
T0E20 001:211 JLINK_WriteReg(R6, 0x00000000)  returns 0x00 (0000ms, 0756ms total)
T0E20 001:211 JLINK_WriteReg(R7, 0x00000000)  returns 0x00 (0000ms, 0756ms total)
T0E20 001:211 JLINK_WriteReg(R8, 0x00000000)  returns 0x00 (0000ms, 0756ms total)
T0E20 001:211 JLINK_WriteReg(R9, 0x20000160)  returns 0x00 (0000ms, 0756ms total)
T0E20 001:211 JLINK_WriteReg(R10, 0x00000000)  returns 0x00 (0000ms, 0756ms total)
T0E20 001:211 JLINK_WriteReg(R11, 0x00000000)  returns 0x00 (0000ms, 0756ms total)
T0E20 001:211 JLINK_WriteReg(R12, 0x00000000)  returns 0x00 (0000ms, 0756ms total)
T0E20 001:211 JLINK_WriteReg(R13 (SP), 0x20001000)  returns 0x00 (0000ms, 0756ms total)
T0E20 001:211 JLINK_WriteReg(R14, 0x20000001)  returns 0x00 (0000ms, 0756ms total)
T0E20 001:211 JLINK_WriteReg(R15 (PC), 0x200000F4)  returns 0x00 (0000ms, 0756ms total)
T0E20 001:211 JLINK_WriteReg(XPSR, 0x01000000)  returns 0x00 (0000ms, 0756ms total)
T0E20 001:211 JLINK_WriteReg(MSP, 0x20001000)  returns 0x00 (0000ms, 0756ms total)
T0E20 001:211 JLINK_WriteReg(PSP, 0x20001000)  returns 0x00 (0000ms, 0756ms total)
T0E20 001:211 JLINK_WriteReg(CFBP, 0x00000000)  returns 0x00 (0000ms, 0756ms total)
T0E20 001:211 JLINK_SetBPEx(Addr = 0x20000000, Type = 0xFFFFFFF2)  returns 0x0000000C (0000ms, 0756ms total)
T0E20 001:211 JLINK_Go() -- CPU_ReadMem(4 bytes @ 0xE0001000) (0001ms, 0757ms total)
T0E20 001:212 JLINK_IsHalted()  returns FALSE (0001ms, 0758ms total)
T0E20 001:216 JLINK_IsHalted()  returns FALSE (0000ms, 0757ms total)
T0E20 001:218 JLINK_IsHalted()  returns FALSE (0000ms, 0757ms total)
T0E20 001:220 JLINK_IsHalted()  returns FALSE (0000ms, 0757ms total)
T0E20 001:222 JLINK_IsHalted()  returns FALSE (0000ms, 0757ms total)
T0E20 001:224 JLINK_IsHalted()  returns FALSE (0000ms, 0757ms total)
T0E20 001:226 JLINK_IsHalted()  returns FALSE (0000ms, 0757ms total)
T0E20 001:229 JLINK_IsHalted()  returns FALSE (0000ms, 0757ms total)
T0E20 001:231 JLINK_IsHalted()  returns FALSE (0000ms, 0757ms total)
T0E20 001:233 JLINK_IsHalted()  returns FALSE (0000ms, 0757ms total)
T0E20 001:235 JLINK_IsHalted()  returns FALSE (0000ms, 0757ms total)
T0E20 001:237 JLINK_IsHalted()  returns FALSE (0000ms, 0757ms total)
T0E20 001:239 JLINK_IsHalted()  returns FALSE (0000ms, 0757ms total)
T0E20 001:241 JLINK_IsHalted()  returns FALSE (0000ms, 0757ms total)
T0E20 001:243 JLINK_IsHalted()  returns FALSE (0000ms, 0757ms total)
T0E20 001:248 JLINK_IsHalted() -- CPU_ReadMem(2 bytes @ 0x20000000)  returns TRUE (0002ms, 0759ms total)
T0E20 001:250 JLINK_ReadReg(R15 (PC))  returns 0x20000000 (0000ms, 0757ms total)
T0E20 001:250 JLINK_ClrBPEx(BPHandle = 0x0000000C)  returns 0x00 (0000ms, 0757ms total)
T0E20 001:250 JLINK_ReadReg(R0)  returns 0x00000000 (0000ms, 0757ms total)
T0E20 001:250 JLINK_WriteMem(0x20000164, 0x0400 Bytes, ...) - Data: A0 B2 10 BD 00 6C 00 40 10 B5 03 46 00 20 03 48 ... -- CPU_WriteMem(1024 bytes @ 0x20000164)  returns 0x400 (0004ms, 0761ms total)
T0E20 001:254 JLINK_WriteReg(R0, 0x08002000)  returns 0x00 (0000ms, 0761ms total)
T0E20 001:254 JLINK_WriteReg(R1, 0x00000400)  returns 0x00 (0000ms, 0761ms total)
T0E20 001:254 JLINK_WriteReg(R2, 0x20000164)  returns 0x00 (0000ms, 0761ms total)
T0E20 001:254 JLINK_WriteReg(R3, 0x00000000)  returns 0x00 (0000ms, 0761ms total)
T0E20 001:254 JLINK_WriteReg(R4, 0x00000000)  returns 0x00 (0000ms, 0761ms total)
T0E20 001:254 JLINK_WriteReg(R5, 0x00000000)  returns 0x00 (0000ms, 0761ms total)
T0E20 001:254 JLINK_WriteReg(R6, 0x00000000)  returns 0x00 (0000ms, 0761ms total)
T0E20 001:254 JLINK_WriteReg(R7, 0x00000000)  returns 0x00 (0000ms, 0761ms total)
T0E20 001:254 JLINK_WriteReg(R8, 0x00000000)  returns 0x00 (0000ms, 0761ms total)
T0E20 001:254 JLINK_WriteReg(R9, 0x20000160)  returns 0x00 (0000ms, 0761ms total)
T0E20 001:254 JLINK_WriteReg(R10, 0x00000000)  returns 0x00 (0000ms, 0761ms total)
T0E20 001:254 JLINK_WriteReg(R11, 0x00000000)  returns 0x00 (0000ms, 0761ms total)
T0E20 001:254 JLINK_WriteReg(R12, 0x00000000)  returns 0x00 (0000ms, 0761ms total)
T0E20 001:254 JLINK_WriteReg(R13 (SP), 0x20001000)  returns 0x00 (0001ms, 0762ms total)
T0E20 001:255 JLINK_WriteReg(R14, 0x20000001)  returns 0x00 (0000ms, 0762ms total)
T0E20 001:255 JLINK_WriteReg(R15 (PC), 0x200000F4)  returns 0x00 (0000ms, 0762ms total)
T0E20 001:255 JLINK_WriteReg(XPSR, 0x01000000)  returns 0x00 (0000ms, 0762ms total)
T0E20 001:255 JLINK_WriteReg(MSP, 0x20001000)  returns 0x00 (0000ms, 0762ms total)
T0E20 001:255 JLINK_WriteReg(PSP, 0x20001000)  returns 0x00 (0000ms, 0762ms total)
T0E20 001:255 JLINK_WriteReg(CFBP, 0x00000000)  returns 0x00 (0000ms, 0762ms total)
T0E20 001:255 JLINK_SetBPEx(Addr = 0x20000000, Type = 0xFFFFFFF2)  returns 0x0000000D (0000ms, 0762ms total)
T0E20 001:255 JLINK_Go() -- CPU_ReadMem(4 bytes @ 0xE0001000) (0001ms, 0763ms total)
T0E20 001:256 JLINK_IsHalted()  returns FALSE (0001ms, 0764ms total)
T0E20 001:259 JLINK_IsHalted()  returns FALSE (0000ms, 0763ms total)
T0E20 001:261 JLINK_IsHalted()  returns FALSE (0000ms, 0763ms total)
T0E20 001:263 JLINK_IsHalted()  returns FALSE (0000ms, 0763ms total)
T0E20 001:265 JLINK_IsHalted()  returns FALSE (0000ms, 0763ms total)
T0E20 001:267 JLINK_IsHalted()  returns FALSE (0000ms, 0763ms total)
T0E20 001:269 JLINK_IsHalted()  returns FALSE (0000ms, 0763ms total)
T0E20 001:271 JLINK_IsHalted()  returns FALSE (0000ms, 0763ms total)
T0E20 001:273 JLINK_IsHalted()  returns FALSE (0000ms, 0763ms total)
T0E20 001:277 JLINK_IsHalted()  returns FALSE (0000ms, 0763ms total)
T0E20 001:279 JLINK_IsHalted()  returns FALSE (0000ms, 0763ms total)
T0E20 001:281 JLINK_IsHalted()  returns FALSE (0000ms, 0763ms total)
T0E20 001:283 JLINK_IsHalted()  returns FALSE (0000ms, 0763ms total)
T0E20 001:285 JLINK_IsHalted()  returns FALSE (0000ms, 0763ms total)
T0E20 001:287 JLINK_IsHalted()  returns FALSE (0000ms, 0763ms total)
T0E20 001:289 JLINK_IsHalted() -- CPU_ReadMem(2 bytes @ 0x20000000)  returns TRUE (0002ms, 0765ms total)
T0E20 001:291 JLINK_ReadReg(R15 (PC))  returns 0x20000000 (0000ms, 0763ms total)
T0E20 001:291 JLINK_ClrBPEx(BPHandle = 0x0000000D)  returns 0x00 (0000ms, 0763ms total)
T0E20 001:291 JLINK_ReadReg(R0)  returns 0x00000000 (0000ms, 0763ms total)
T0E20 001:291 JLINK_WriteMem(0x20000164, 0x0400 Bytes, ...) - Data: 01 90 00 BF 00 BF A0 20 02 90 02 20 03 90 03 20 ... -- CPU_WriteMem(1024 bytes @ 0x20000164)  returns 0x400 (0004ms, 0767ms total)
T0E20 001:295 JLINK_WriteReg(R0, 0x08002400)  returns 0x00 (0000ms, 0767ms total)
T0E20 001:295 JLINK_WriteReg(R1, 0x00000400)  returns 0x00 (0000ms, 0767ms total)
T0E20 001:295 JLINK_WriteReg(R2, 0x20000164)  returns 0x00 (0000ms, 0767ms total)
T0E20 001:295 JLINK_WriteReg(R3, 0x00000000)  returns 0x00 (0000ms, 0767ms total)
T0E20 001:295 JLINK_WriteReg(R4, 0x00000000)  returns 0x00 (0000ms, 0767ms total)
T0E20 001:295 JLINK_WriteReg(R5, 0x00000000)  returns 0x00 (0001ms, 0768ms total)
T0E20 001:296 JLINK_WriteReg(R6, 0x00000000)  returns 0x00 (0000ms, 0768ms total)
T0E20 001:296 JLINK_WriteReg(R7, 0x00000000)  returns 0x00 (0000ms, 0768ms total)
T0E20 001:296 JLINK_WriteReg(R8, 0x00000000)  returns 0x00 (0000ms, 0768ms total)
